Sample in Buffer,Sample in Window,TRIGGER,u_ndpp_wrapper/user_logic_native_mem_valid[0:0],u_ndpp_wrapper/user_logic_native_mem_address[23:0],u_ndpp_wrapper/user_logic_native_mem_strb[31:0],u_ndpp_wrapper/user_logic_native_mem_data[7:0],u_ndpp_wrapper/trigger_counter[7:0],u_ndpp_wrapper/trigger_counter_hls[7:0]
Radix - UNSIGNED,UNSIGNED,UNSIGNED,HEX,HEX,HEX,HEX,HEX,HEX
0,0,0,0,300060,00000000,c9,00,01
1,1,0,0,300060,00000000,c9,00,01
2,2,0,0,300060,00000000,c9,00,01
3,3,0,0,300060,00000000,c9,00,01
4,4,0,0,300060,00000000,c9,00,01
5,5,0,0,300060,00000000,c9,00,01
6,6,0,0,300060,00000000,c9,00,01
7,7,0,0,300060,00000000,c9,00,01
8,8,0,0,300060,00000000,c9,00,01
9,9,0,0,300060,00000000,c9,00,01
10,10,0,0,300060,00000000,c9,00,01
11,11,0,0,300060,00000000,c9,00,01
12,12,0,0,300060,00000000,c9,00,01
13,13,0,0,300060,00000000,c9,00,01
14,14,0,0,300060,00000000,c9,00,01
15,15,0,0,300060,00000000,c9,00,01
16,16,0,0,300060,00000000,c9,00,01
17,17,0,0,300060,00000000,c9,00,01
18,18,0,0,300060,00000000,c9,00,01
19,19,0,0,300060,00000000,c9,00,01
20,20,0,0,300060,00000000,c9,00,01
21,21,0,0,300060,00000000,c9,00,01
22,22,0,0,300060,00000000,c9,00,01
23,23,0,0,300060,00000000,c9,00,01
24,24,0,0,300060,00000000,c9,00,01
25,25,0,0,300060,00000000,c9,00,01
26,26,0,0,300060,00000000,c9,00,01
27,27,0,0,300060,00000000,c9,00,01
28,28,0,0,300060,00000000,c9,00,01
29,29,0,0,300060,00000000,c9,00,01
30,30,0,0,300060,00000000,c9,00,01
31,31,0,0,300060,00000000,c9,00,01
32,32,0,0,300060,00000000,c9,00,01
33,33,0,0,300060,00000000,c9,00,01
34,34,0,0,300060,00000000,c9,00,01
35,35,0,0,300060,00000000,c9,00,01
36,36,0,0,300060,00000000,c9,00,01
37,37,0,0,300060,00000000,c9,00,01
38,38,0,0,300060,00000000,c9,00,01
39,39,0,0,300060,00000000,c9,00,01
40,40,0,0,300060,00000000,c9,00,01
41,41,0,0,300060,00000000,c9,00,01
42,42,0,0,300060,00000000,c9,00,01
43,43,0,0,300060,00000000,c9,00,01
44,44,0,0,300060,00000000,c9,00,01
45,45,0,0,300060,00000000,c9,00,01
46,46,0,0,300060,00000000,c9,00,01
47,47,0,0,300060,00000000,c9,00,01
48,48,0,0,300060,00000000,c9,00,01
49,49,0,0,300060,00000000,c9,00,01
50,50,0,0,300060,00000000,c9,00,01
51,51,0,0,300060,00000000,c9,00,01
52,52,0,0,300060,00000000,c9,00,01
53,53,0,0,300060,00000000,c9,00,01
54,54,0,0,300060,00000000,c9,00,01
55,55,0,0,300060,00000000,c9,00,01
56,56,0,0,300060,00000000,c9,00,01
57,57,0,0,300060,00000000,c9,00,01
58,58,0,0,300060,00000000,c9,00,01
59,59,0,0,300060,00000000,c9,00,01
60,60,0,0,300060,00000000,c9,00,01
61,61,0,0,300060,00000000,c9,00,01
62,62,0,0,300060,00000000,c9,00,01
63,63,0,0,300060,00000000,c9,00,01
64,64,0,0,300060,00000000,c9,00,01
65,65,0,0,300060,00000000,c9,00,01
66,66,0,0,300060,00000000,c9,00,01
67,67,0,0,300060,00000000,c9,00,01
68,68,0,0,300060,00000000,c9,00,01
69,69,0,0,300060,00000000,c9,00,01
70,70,0,0,300060,00000000,c9,00,01
71,71,0,0,300060,00000000,c9,00,01
72,72,0,0,300060,00000000,c9,00,01
73,73,0,0,300060,00000000,c9,00,01
74,74,0,0,300060,00000000,c9,00,01
75,75,0,0,300060,00000000,c9,00,01
76,76,0,0,300060,00000000,c9,00,01
77,77,0,0,300060,00000000,c9,00,01
78,78,0,0,300060,00000000,c9,00,01
79,79,0,0,300060,00000000,c9,00,01
80,80,0,0,300060,00000000,c9,00,01
81,81,0,0,300060,00000000,c9,00,01
82,82,0,0,300060,00000000,c9,00,01
83,83,0,0,300060,00000000,c9,00,01
84,84,0,0,300060,00000000,c9,00,01
85,85,0,0,300060,00000000,c9,00,01
86,86,0,0,300060,00000000,c9,00,01
87,87,0,0,300060,00000000,c9,00,01
88,88,0,0,300060,00000000,c9,00,01
89,89,0,0,300060,00000000,c9,00,01
90,90,0,0,300060,00000000,c9,00,01
91,91,0,0,300060,00000000,c9,00,01
92,92,0,0,300060,00000000,c9,00,01
93,93,0,0,300060,00000000,c9,00,01
94,94,0,0,300060,00000000,c9,00,01
95,95,0,0,300060,00000000,c9,00,01
96,96,0,0,300060,00000000,c9,00,01
97,97,0,0,300060,00000000,c9,00,01
98,98,0,0,300060,00000000,c9,00,01
99,99,0,0,300060,00000000,c9,00,01
100,100,0,0,300060,00000000,c9,00,01
101,101,0,0,300060,00000000,c9,00,01
102,102,0,0,300060,00000000,c9,00,01
103,103,0,0,300060,00000000,c9,00,01
104,104,0,0,300060,00000000,c9,00,01
105,105,0,0,300060,00000000,c9,00,01
106,106,0,0,300060,00000000,c9,00,01
107,107,0,0,300060,00000000,c9,00,01
108,108,0,0,300060,00000000,c9,00,01
109,109,0,0,300060,00000000,c9,00,01
110,110,0,0,300060,00000000,c9,00,01
111,111,0,0,300060,00000000,c9,00,01
112,112,0,0,300060,00000000,c9,00,01
113,113,0,0,300060,00000000,c9,00,01
114,114,0,0,300060,00000000,c9,00,01
115,115,0,0,300060,00000000,c9,00,01
116,116,0,0,300060,00000000,c9,00,01
117,117,0,0,300060,00000000,c9,00,01
118,118,0,0,300060,00000000,c9,00,01
119,119,0,0,300060,00000000,c9,00,01
120,120,0,0,300060,00000000,c9,00,01
121,121,0,0,300060,00000000,c9,00,01
122,122,0,0,300060,00000000,c9,00,01
123,123,0,0,300060,00000000,c9,00,01
124,124,0,0,300060,00000000,c9,00,01
125,125,0,0,300060,00000000,c9,00,01
126,126,0,0,300060,00000000,c9,00,01
127,127,0,0,300060,00000000,c9,00,01
128,128,0,0,300060,00000000,c9,00,01
129,129,0,0,300060,00000000,c9,00,01
130,130,0,0,300060,00000000,c9,00,01
131,131,0,0,300060,00000000,c9,00,01
132,132,0,0,300060,00000000,c9,00,01
133,133,0,0,300060,00000000,c9,00,01
134,134,0,0,300060,00000000,c9,00,01
135,135,0,0,300060,00000000,c9,00,01
136,136,0,0,300060,00000000,c9,00,01
137,137,0,0,300060,00000000,c9,00,01
138,138,0,0,300060,00000000,c9,00,01
139,139,0,0,300060,00000000,c9,00,01
140,140,0,0,300060,00000000,c9,00,01
141,141,0,0,300060,00000000,c9,00,01
142,142,0,0,300060,00000000,c9,00,01
143,143,0,0,300060,00000000,c9,00,01
144,144,0,0,300060,00000000,c9,00,01
145,145,0,0,300060,00000000,c9,00,01
146,146,0,0,300060,00000000,c9,00,01
147,147,0,0,300060,00000000,c9,00,01
148,148,0,0,300060,00000000,c9,00,01
149,149,0,0,300060,00000000,c9,00,01
150,150,0,0,300060,00000000,c9,00,01
151,151,0,0,300060,00000000,c9,00,01
152,152,0,0,300060,00000000,c9,00,01
153,153,0,0,300060,00000000,c9,00,01
154,154,0,0,300060,00000000,c9,00,01
155,155,0,0,300060,00000000,c9,00,01
156,156,0,0,300060,00000000,c9,00,01
157,157,0,0,300060,00000000,c9,00,01
158,158,0,0,300060,00000000,c9,00,01
159,159,0,0,300060,00000000,c9,00,01
160,160,0,0,300060,00000000,c9,00,01
161,161,0,0,300060,00000000,c9,00,01
162,162,0,0,300060,00000000,c9,00,01
163,163,0,0,300060,00000000,c9,00,01
164,164,0,0,300060,00000000,c9,00,01
165,165,0,0,300060,00000000,c9,00,01
166,166,0,0,300060,00000000,c9,00,01
167,167,0,0,300060,00000000,c9,00,01
168,168,0,0,300060,00000000,c9,00,01
169,169,0,0,300060,00000000,c9,00,01
170,170,0,0,300060,00000000,c9,00,01
171,171,0,0,300060,00000000,c9,00,01
172,172,0,0,300060,00000000,c9,00,01
173,173,0,0,300060,00000000,c9,00,01
174,174,0,0,300060,00000000,c9,00,01
175,175,0,0,300060,00000000,c9,00,01
176,176,0,0,300060,00000000,c9,00,01
177,177,0,0,300060,00000000,c9,00,01
178,178,0,0,300060,00000000,c9,00,01
179,179,0,0,300060,00000000,c9,00,01
180,180,0,0,300060,00000000,c9,00,01
181,181,0,0,300060,00000000,c9,00,01
182,182,0,0,300060,00000000,c9,00,01
183,183,0,0,300060,00000000,c9,00,01
184,184,0,0,300060,00000000,c9,00,01
185,185,0,0,300060,00000000,c9,00,01
186,186,0,0,300060,00000000,c9,00,01
187,187,0,0,300060,00000000,c9,00,01
188,188,0,0,300060,00000000,c9,00,01
189,189,0,0,300060,00000000,c9,00,01
190,190,0,0,300060,00000000,c9,00,01
191,191,0,0,300060,00000000,c9,00,01
192,192,0,0,300060,00000000,c9,00,01
193,193,0,0,300060,00000000,c9,00,01
194,194,0,0,300060,00000000,c9,00,01
195,195,0,0,300060,00000000,c9,00,01
196,196,0,0,300060,00000000,c9,00,01
197,197,0,0,300060,00000000,c9,00,01
198,198,0,0,300060,00000000,c9,00,01
199,199,0,0,300060,00000000,c9,00,01
200,200,0,0,300060,00000000,c9,00,01
201,201,0,0,300060,00000000,c9,00,01
202,202,0,0,300060,00000000,c9,00,01
203,203,0,0,300060,00000000,c9,00,01
204,204,0,0,300060,00000000,c9,00,01
205,205,0,0,300060,00000000,c9,00,01
206,206,0,0,300060,00000000,c9,00,01
207,207,0,0,300060,00000000,c9,00,01
208,208,0,0,300060,00000000,c9,00,01
209,209,0,0,300060,00000000,c9,00,01
210,210,0,0,300060,00000000,c9,00,01
211,211,0,0,300060,00000000,c9,00,01
212,212,0,0,300060,00000000,c9,00,01
213,213,0,0,300060,00000000,c9,00,01
214,214,0,0,300060,00000000,c9,00,01
215,215,0,0,300060,00000000,c9,00,01
216,216,0,0,300060,00000000,c9,00,01
217,217,0,0,300060,00000000,c9,00,01
218,218,0,0,300060,00000000,c9,00,01
219,219,0,0,300060,00000000,c9,00,01
220,220,0,0,300060,00000000,c9,00,01
221,221,0,0,300060,00000000,c9,00,01
222,222,0,0,300060,00000000,c9,00,01
223,223,0,0,300060,00000000,c9,00,01
224,224,0,0,300060,00000000,c9,00,01
225,225,0,0,300060,00000000,c9,00,01
226,226,0,0,300060,00000000,c9,00,01
227,227,0,0,300060,00000000,c9,00,01
228,228,0,0,300060,00000000,c9,00,01
229,229,0,0,300060,00000000,c9,00,01
230,230,0,0,300060,00000000,c9,00,01
231,231,0,0,300060,00000000,c9,00,01
232,232,0,0,300060,00000000,c9,00,01
233,233,0,0,300060,00000000,c9,00,01
234,234,0,0,300060,00000000,c9,00,01
235,235,0,0,300060,00000000,c9,00,01
236,236,0,0,300060,00000000,c9,00,01
237,237,0,0,300060,00000000,c9,00,01
238,238,0,0,300060,00000000,c9,00,01
239,239,0,0,300060,00000000,c9,00,01
240,240,0,0,300060,00000000,c9,00,01
241,241,0,0,300060,00000000,c9,00,01
242,242,0,0,300060,00000000,c9,00,01
243,243,0,0,300060,00000000,c9,00,01
244,244,0,0,300060,00000000,c9,00,01
245,245,0,0,300060,00000000,c9,00,01
246,246,0,0,300060,00000000,c9,00,01
247,247,0,0,300060,00000000,c9,00,01
248,248,0,0,300060,00000000,c9,00,01
249,249,0,0,300060,00000000,c9,00,01
250,250,0,0,300060,00000000,c9,00,01
251,251,0,0,300060,00000000,c9,00,01
252,252,0,0,300060,00000000,c9,00,01
253,253,0,0,300060,00000000,c9,00,01
254,254,0,0,300060,00000000,c9,00,01
255,255,0,0,300060,00000000,c9,00,01
256,256,0,0,300060,00000000,c9,00,01
257,257,0,0,300060,00000000,c9,00,01
258,258,0,0,300060,00000000,c9,00,01
259,259,0,0,300060,00000000,c9,00,01
260,260,0,0,300060,00000000,c9,00,01
261,261,0,0,300060,00000000,c9,00,01
262,262,0,0,300060,00000000,c9,00,01
263,263,0,0,300060,00000000,c9,00,01
264,264,0,0,300060,00000000,c9,00,01
265,265,0,0,300060,00000000,c9,00,01
266,266,0,0,300060,00000000,c9,00,01
267,267,0,0,300060,00000000,c9,00,01
268,268,0,0,300060,00000000,c9,00,01
269,269,0,0,300060,00000000,c9,00,01
270,270,0,0,300060,00000000,c9,00,01
271,271,0,0,300060,00000000,c9,00,01
272,272,0,0,300060,00000000,c9,00,01
273,273,0,0,300060,00000000,c9,00,01
274,274,0,0,300060,00000000,c9,00,01
275,275,0,0,300060,00000000,c9,00,01
276,276,0,0,300060,00000000,c9,00,01
277,277,0,0,300060,00000000,c9,00,01
278,278,0,0,300060,00000000,c9,00,01
279,279,0,0,300060,00000000,c9,00,01
280,280,0,0,300060,00000000,c9,00,01
281,281,0,0,300060,00000000,c9,00,01
282,282,0,0,300060,00000000,c9,00,01
283,283,0,0,300060,00000000,c9,00,01
284,284,0,0,300060,00000000,c9,00,01
285,285,0,0,300060,00000000,c9,00,01
286,286,0,0,300060,00000000,c9,00,01
287,287,0,0,300060,00000000,c9,00,01
288,288,0,0,300060,00000000,c9,00,01
289,289,0,0,300060,00000000,c9,00,01
290,290,0,0,300060,00000000,c9,00,01
291,291,0,0,300060,00000000,c9,00,01
292,292,0,0,300060,00000000,c9,00,01
293,293,0,0,300060,00000000,c9,00,01
294,294,0,0,300060,00000000,c9,00,01
295,295,0,0,300060,00000000,c9,00,01
296,296,0,0,300060,00000000,c9,00,01
297,297,0,0,300060,00000000,c9,00,01
298,298,0,0,300060,00000000,c9,00,01
299,299,0,0,300060,00000000,c9,00,01
300,300,0,0,300060,00000000,c9,00,01
301,301,0,0,300060,00000000,c9,00,01
302,302,0,0,300060,00000000,c9,00,01
303,303,0,0,300060,00000000,c9,00,01
304,304,0,0,300060,00000000,c9,00,01
305,305,0,0,300060,00000000,c9,00,01
306,306,0,0,300060,00000000,c9,00,01
307,307,0,0,300060,00000000,c9,00,01
308,308,0,0,300060,00000000,c9,00,01
309,309,0,0,300060,00000000,c9,00,01
310,310,0,0,300060,00000000,c9,00,01
311,311,0,0,300060,00000000,c9,00,01
312,312,0,0,300060,00000000,c9,00,01
313,313,0,0,300060,00000000,c9,00,01
314,314,0,0,300060,00000000,c9,00,01
315,315,0,0,300060,00000000,c9,00,01
316,316,0,0,300060,00000000,c9,00,01
317,317,0,0,300060,00000000,c9,00,01
318,318,0,0,300060,00000000,c9,00,01
319,319,0,0,300060,00000000,c9,00,01
320,320,0,0,300060,00000000,c9,00,01
321,321,0,0,300060,00000000,c9,00,01
322,322,0,0,300060,00000000,c9,00,01
323,323,0,0,300060,00000000,c9,00,01
324,324,0,0,300060,00000000,c9,00,01
325,325,0,0,300060,00000000,c9,00,01
326,326,0,0,300060,00000000,c9,00,01
327,327,0,0,300060,00000000,c9,00,01
328,328,0,0,300060,00000000,c9,00,01
329,329,0,0,300060,00000000,c9,00,01
330,330,0,0,300060,00000000,c9,00,01
331,331,0,0,300060,00000000,c9,00,01
332,332,0,0,300060,00000000,c9,00,01
333,333,0,0,300060,00000000,c9,00,01
334,334,0,0,300060,00000000,c9,00,01
335,335,0,0,300060,00000000,c9,00,01
336,336,0,0,300060,00000000,c9,00,01
337,337,0,0,300060,00000000,c9,00,01
338,338,0,0,300060,00000000,c9,00,01
339,339,0,0,300060,00000000,c9,00,01
340,340,0,0,300060,00000000,c9,00,01
341,341,0,0,300060,00000000,c9,00,01
342,342,0,0,300060,00000000,c9,00,01
343,343,0,0,300060,00000000,c9,00,01
344,344,0,0,300060,00000000,c9,00,01
345,345,0,0,300060,00000000,c9,00,01
346,346,0,0,300060,00000000,c9,00,01
347,347,0,0,300060,00000000,c9,00,01
348,348,0,0,300060,00000000,c9,00,01
349,349,0,0,300060,00000000,c9,00,01
350,350,0,0,300060,00000000,c9,00,01
351,351,0,0,300060,00000000,c9,00,01
352,352,0,0,300060,00000000,c9,00,01
353,353,0,0,300060,00000000,c9,00,01
354,354,0,0,300060,00000000,c9,00,01
355,355,0,0,300060,00000000,c9,00,01
356,356,0,0,300060,00000000,c9,00,01
357,357,0,0,300060,00000000,c9,00,01
358,358,0,0,300060,00000000,c9,00,01
359,359,0,0,300060,00000000,c9,00,01
360,360,0,0,300060,00000000,c9,00,01
361,361,0,0,300060,00000000,c9,00,01
362,362,0,0,300060,00000000,c9,00,01
363,363,0,0,300060,00000000,c9,00,01
364,364,0,0,300060,00000000,c9,00,01
365,365,0,0,300060,00000000,c9,00,01
366,366,0,0,300060,00000000,c9,00,01
367,367,0,0,300060,00000000,c9,00,01
368,368,0,0,300060,00000000,c9,00,01
369,369,0,0,300060,00000000,c9,00,01
370,370,0,0,300060,00000000,c9,00,01
371,371,0,0,300060,00000000,c9,00,01
372,372,0,0,300060,00000000,c9,00,01
373,373,0,0,300060,00000000,c9,00,01
374,374,0,0,300060,00000000,c9,00,01
375,375,0,0,300060,00000000,c9,00,01
376,376,0,0,300060,00000000,c9,00,01
377,377,0,0,300060,00000000,c9,00,01
378,378,0,0,300060,00000000,c9,00,01
379,379,0,0,300060,00000000,c9,00,01
380,380,0,0,300060,00000000,c9,00,01
381,381,0,0,300060,00000000,c9,00,01
382,382,0,0,300060,00000000,c9,00,01
383,383,0,0,300060,00000000,c9,00,01
384,384,0,0,300060,00000000,c9,00,01
385,385,0,0,300060,00000000,c9,00,01
386,386,0,0,300060,00000000,c9,00,01
387,387,0,0,300060,00000000,c9,00,01
388,388,0,0,300060,00000000,c9,00,01
389,389,0,0,300060,00000000,c9,00,01
390,390,0,0,300060,00000000,c9,00,01
391,391,0,0,300060,00000000,c9,00,01
392,392,0,0,300060,00000000,c9,00,01
393,393,0,0,300060,00000000,c9,00,01
394,394,0,0,300060,00000000,c9,00,01
395,395,0,0,300060,00000000,c9,00,01
396,396,0,0,300060,00000000,c9,00,01
397,397,0,0,300060,00000000,c9,00,01
398,398,0,0,300060,00000000,c9,00,01
399,399,0,0,300060,00000000,c9,00,01
400,400,0,0,300060,00000000,c9,00,01
401,401,0,0,300060,00000000,c9,00,01
402,402,0,0,300060,00000000,c9,00,01
403,403,0,0,300060,00000000,c9,00,01
404,404,0,0,300060,00000000,c9,00,01
405,405,0,0,300060,00000000,c9,00,01
406,406,0,0,300060,00000000,c9,00,01
407,407,0,0,300060,00000000,c9,00,01
408,408,0,0,300060,00000000,c9,00,01
409,409,0,0,300060,00000000,c9,00,01
410,410,0,0,300060,00000000,c9,00,01
411,411,0,0,300060,00000000,c9,00,01
412,412,0,0,300060,00000000,c9,00,01
413,413,0,0,300060,00000000,c9,00,01
414,414,0,0,300060,00000000,c9,00,01
415,415,0,0,300060,00000000,c9,00,01
416,416,0,0,300060,00000000,c9,00,01
417,417,0,0,300060,00000000,c9,00,01
418,418,0,0,300060,00000000,c9,00,01
419,419,0,0,300060,00000000,c9,00,01
420,420,0,0,300060,00000000,c9,00,01
421,421,0,0,300060,00000000,c9,00,01
422,422,0,0,300060,00000000,c9,00,01
423,423,0,0,300060,00000000,c9,00,01
424,424,0,0,300060,00000000,c9,00,01
425,425,0,0,300060,00000000,c9,00,01
426,426,0,0,300060,00000000,c9,00,01
427,427,0,0,300060,00000000,c9,00,01
428,428,0,0,300060,00000000,c9,00,01
429,429,0,0,300060,00000000,c9,00,01
430,430,0,0,300060,00000000,c9,00,01
431,431,0,0,300060,00000000,c9,00,01
432,432,0,0,300060,00000000,c9,00,01
433,433,0,0,300060,00000000,c9,00,01
434,434,0,0,300060,00000000,c9,00,01
435,435,0,0,300060,00000000,c9,00,01
436,436,0,0,300060,00000000,c9,00,01
437,437,0,0,300060,00000000,c9,00,01
438,438,0,0,300060,00000000,c9,00,01
439,439,0,0,300060,00000000,c9,00,01
440,440,0,0,300060,00000000,c9,00,01
441,441,0,0,300060,00000000,c9,00,01
442,442,0,0,300060,00000000,c9,00,01
443,443,0,0,300060,00000000,c9,00,01
444,444,0,0,300060,00000000,c9,00,01
445,445,0,0,300060,00000000,c9,00,01
446,446,0,0,300060,00000000,c9,00,01
447,447,0,0,300060,00000000,c9,00,01
448,448,0,0,300060,00000000,c9,00,01
449,449,0,0,300060,00000000,c9,00,01
450,450,0,0,300060,00000000,c9,00,01
451,451,0,0,300060,00000000,c9,00,01
452,452,0,0,300060,00000000,c9,00,01
453,453,0,0,300060,00000000,c9,00,01
454,454,0,0,300060,00000000,c9,00,01
455,455,0,0,300060,00000000,c9,00,01
456,456,0,0,300060,00000000,c9,00,01
457,457,0,0,300060,00000000,c9,00,01
458,458,0,0,300060,00000000,c9,00,01
459,459,0,0,300060,00000000,c9,00,01
460,460,0,0,300060,00000000,c9,00,01
461,461,0,0,300060,00000000,c9,00,01
462,462,0,0,300060,00000000,c9,00,01
463,463,0,0,300060,00000000,c9,00,01
464,464,0,0,300060,00000000,c9,00,01
465,465,0,0,300060,00000000,c9,00,01
466,466,0,0,300060,00000000,c9,00,01
467,467,0,0,300060,00000000,c9,00,01
468,468,0,0,300060,00000000,c9,00,01
469,469,0,0,300060,00000000,c9,00,01
470,470,0,0,300060,00000000,c9,00,01
471,471,0,0,300060,00000000,c9,00,01
472,472,0,0,300060,00000000,c9,00,01
473,473,0,0,300060,00000000,c9,00,01
474,474,0,0,300060,00000000,c9,00,01
475,475,0,0,300060,00000000,c9,00,01
476,476,0,0,300060,00000000,c9,00,01
477,477,0,0,300060,00000000,c9,00,01
478,478,0,0,300060,00000000,c9,00,01
479,479,0,0,300060,00000000,c9,00,01
480,480,0,0,300060,00000000,c9,00,01
481,481,0,0,300060,00000000,c9,00,01
482,482,0,0,300060,00000000,c9,00,01
483,483,0,0,300060,00000000,c9,00,01
484,484,0,0,300060,00000000,c9,00,01
485,485,0,0,300060,00000000,c9,00,01
486,486,0,0,300060,00000000,c9,00,01
487,487,0,0,300060,00000000,c9,00,01
488,488,0,0,300060,00000000,c9,00,01
489,489,0,0,300060,00000000,c9,00,01
490,490,0,0,300060,00000000,c9,00,01
491,491,0,0,300060,00000000,c9,00,01
492,492,0,0,300060,00000000,c9,00,01
493,493,0,0,300060,00000000,c9,00,01
494,494,0,0,300060,00000000,c9,00,01
495,495,0,0,300060,00000000,c9,00,01
496,496,0,0,300060,00000000,c9,00,01
497,497,0,0,300060,00000000,c9,00,01
498,498,0,0,300060,00000000,c9,00,01
499,499,0,0,300060,00000000,c9,00,01
500,500,0,0,300060,00000000,c9,00,01
501,501,0,0,300060,00000000,c9,00,01
502,502,0,0,300060,00000000,c9,00,01
503,503,0,0,300060,00000000,c9,00,01
504,504,0,0,300060,00000000,c9,00,01
505,505,0,0,300060,00000000,c9,00,01
506,506,0,0,300060,00000000,c9,00,01
507,507,0,0,300060,00000000,c9,00,01
508,508,0,0,300060,00000000,c9,00,01
509,509,0,0,300060,00000000,c9,00,01
510,510,0,0,300060,00000000,c9,00,01
511,511,0,0,300060,00000000,c9,00,01
512,512,1,1,300040,ffffffff,00,00,01
513,513,0,1,300060,ffffffff,00,00,01
514,514,0,0,300080,00000000,00,00,01
515,515,0,0,3000a0,00000000,00,00,01
516,516,0,1,3000c0,ffffffff,00,00,01
517,517,0,1,3000e0,ffffffff,00,00,01
518,518,0,0,300100,00000000,00,00,01
519,519,0,0,300120,00000000,00,00,01
520,520,0,1,300000,ffffffff,00,00,01
521,521,0,1,300020,ffffffff,00,00,01
522,522,0,0,300040,00000000,00,00,01
523,523,0,0,300060,00000000,00,00,01
524,524,0,1,300080,ffffffff,00,00,01
525,525,0,1,3000a0,ffffffff,00,00,01
526,526,0,0,3000c0,00000000,00,00,01
527,527,0,0,3000e0,00000000,01,00,01
528,528,0,1,300140,ffffffff,01,00,01
529,529,0,1,300160,ffffffff,01,00,01
530,530,0,0,300180,00000000,00,00,01
531,531,0,0,3001a0,00000000,02,00,01
532,532,0,1,300240,ffffffff,02,00,01
533,533,0,1,300260,ffffffff,02,00,01
534,534,0,0,300280,00000000,00,00,01
535,535,0,0,3002a0,00000000,01,00,01
